
**** 05/21/21 01:23:46 ****** PSpice 17.2.0 (March 2016) ****** ID# 0 ********

 ** Profile: "SCHEMATIC1-tran"  [ E:\An2_Sem2\Tehnici_CAD\Proiect\main-PSpiceFiles\SCHEMATIC1\tran.sim ] 


 ****     CIRCUIT DESCRIPTION


******************************************************************************




** Creating circuit file "tran.cir" 
** WARNING: THIS AUTOMATICALLY GENERATED FILE MAY BE OVERWRITTEN BY SUBSEQUENT SIMULATIONS

*Libraries: 
* Profile Libraries :
* Local Libraries :
.LIB "../../../dimesionare_led.lib" 
.LIB "../../../main-pspicefiles/main.lib" 
* From [PSPICE NETLIST] section of C:\SPB_Data\cdssetup\OrCAD_PSpice\17.2.0\PSpice.ini file:
.lib "nom.lib" 

*Analysis directives: 
.TRAN  0 10s 0 
.TEMP -50 -25 0 27 50 75
.OPTIONS ADVCONV
.PROBE64 V(alias(*)) I(alias(*)) W(alias(*)) D(alias(*)) NOISE(alias(*)) 
.INC "..\SCHEMATIC1.net" 



**** INCLUDING SCHEMATIC1.net ****
* source MAIN
X_U5         OUT 0 VCC 0 N16519 uA741
V_V2         -VCC 0 -16
X_U4         OUT N09834 VCC -VCC N09900 uA741
V_V1         VCC 0 16
X_U3         OUT N09690 VCC -VCC N09756 uA741
X_U2         OUT N13610 VCC -VCC N09568 uA741
X_U1         OUT N09294 VCC -VCC N09472 uA741
R_R2         N09568 N19094  1.5k TC=0,0 
R_R4         N09900 N17329  1.47k TC=0,0 
R_R5         N09756 N09654  1.47k TC=0,0 
R_R6         OUT VCC R_R6 4.99k TC=0,0 
.model        R_R6 RES R=1 DEV=1% TC1=0 TC2=0
X_R7         0 OUT OUT POT PARAMS: SET={SET} VALUE=20k
R_R8         0 N09294  2.61k TC=0,0 
R_R9         N09294 VCC R_R9 1k TC=0,0 
.model        R_R9 RES R=1 DEV=1% TC1=0 TC2=0
R_R11         0 N13610  2.15k TC=0,0 
R_R13         0 N09690  1.78k TC=0,0 
R_R15         0 N09834  604 TC=0,0 
R_R16         N09472 N17714  698 TC=0,0 
R_R17         N16519 N18668  1.4k TC=0,0 
R_R10         VCC N13610  1k TC=0,0 
R_R12         VCC N09690  1k TC=0,0 
R_R14         VCC N09834  1k TC=0,0 
D_D15         N09654 N09568 LED_GALBEN 
D_D17         N17714 0 LED_ROSU 
D_D18         N18668 N09900 LED_ALBASTRU 
D_D14         N17329 N09756 LED_VERDE 
D_D16         N19094 N09472 LED_PORTOCALIU 
.PARAM  set=1

**** RESUMING tran.cir ****
.END

**** 05/21/21 01:23:46 ****** PSpice 17.2.0 (March 2016) ****** ID# 0 ********

 ** Profile: "SCHEMATIC1-tran"  [ E:\An2_Sem2\Tehnici_CAD\Proiect\main-PSpiceFiles\SCHEMATIC1\tran.sim ] 


 ****     Diode MODEL PARAMETERS


******************************************************************************




               LED_GALBEN      LED_ROSU        LED_ALBASTRU    LED_VERDE       
          IS    3.261600E-06  410.580000E-12  120.050000E-18  943.610000E-12 
           N    4.995           3.6144          4.3893          3.4471       
          RS    4.4854          9.4285         14.259           8.0431       


               LED_PORTOCALIU  X_U5.dx         X_U5.dy         X_U4.dx         
          IS    2.746300E-12  800.000000E-18  800.000000E-18  800.000000E-18 
           N    2.6136                                                       
          RS    6.312000E-06    1               1.000000E-03    1            
         CJO                                   10.000000E-12                 


               X_U4.dy         X_U3.dx         X_U3.dy         X_U2.dx         
          IS  800.000000E-18  800.000000E-18  800.000000E-18  800.000000E-18 
          RS    1.000000E-03    1               1.000000E-03    1            
         CJO   10.000000E-12                   10.000000E-12                 


               X_U2.dy         X_U1.dx         X_U1.dy         
          IS  800.000000E-18  800.000000E-18  800.000000E-18 
          RS    1.000000E-03    1               1.000000E-03 
         CJO   10.000000E-12                   10.000000E-12 


**** 05/21/21 01:23:46 ****** PSpice 17.2.0 (March 2016) ****** ID# 0 ********

 ** Profile: "SCHEMATIC1-tran"  [ E:\An2_Sem2\Tehnici_CAD\Proiect\main-PSpiceFiles\SCHEMATIC1\tran.sim ] 


 ****     BJT MODEL PARAMETERS


******************************************************************************




               X_U5.qx         X_U4.qx         X_U3.qx         X_U2.qx         
               NPN             NPN             NPN             NPN             
       LEVEL    1               1               1               1            
          IS  800.000000E-18  800.000000E-18  800.000000E-18  800.000000E-18 
          BF   93.75           93.75           93.75           93.75         
          NF    1               1               1               1            
          BR    1               1               1               1            
          NR    1               1               1               1            
         ISS    0               0               0               0            
          RE    0               0               0               0            
          RC    0               0               0               0            
         CJE    0               0               0               0            
         VJE     .75             .75             .75             .75         
         CJC    0               0               0               0            
         VJC     .75             .75             .75             .75         
         MJC     .33             .33             .33             .33         
        XCJC    1               1               1               1            
         CJS    0               0               0               0            
         VJS     .75             .75             .75             .75         
          KF    0               0               0               0            
          AF    1               1               1               1            
          CN    2.42            2.42            2.42            2.42         
           D     .87             .87             .87             .87         


               X_U1.qx         
               NPN             
       LEVEL    1            
          IS  800.000000E-18 
          BF   93.75         
          NF    1            
          BR    1            
          NR    1            
         ISS    0            
          RE    0            
          RC    0            
         CJE    0            
         VJE     .75         
         CJC    0            
         VJC     .75         
         MJC     .33         
        XCJC    1            
         CJS    0            
         VJS     .75         
          KF    0            
          AF    1            
          CN    2.42         
           D     .87         


**** 05/21/21 01:23:46 ****** PSpice 17.2.0 (March 2016) ****** ID# 0 ********

 ** Profile: "SCHEMATIC1-tran"  [ E:\An2_Sem2\Tehnici_CAD\Proiect\main-PSpiceFiles\SCHEMATIC1\tran.sim ] 


 ****     Resistor MODEL PARAMETERS


******************************************************************************




               R_R6            R_R9            
           R    1               1            


**** 05/21/21 01:23:46 ****** PSpice 17.2.0 (March 2016) ****** ID# 0 ********

 ** Profile: "SCHEMATIC1-tran"  [ E:\An2_Sem2\Tehnici_CAD\Proiect\main-PSpiceFiles\SCHEMATIC1\tran.sim ] 


 ****     TEMPERATURE-ADJUSTED VALUES      TEMPERATURE =  -50.000 DEG C


******************************************************************************




 **** DIODE MODEL PARAMETERS

                 LED_GALBEN      LED_ROSU     LED_ALBASTRU  

         IS        1.408E-07      5.335E-12      3.358E-18  
         VJ        1.065E+00      1.065E+00      1.065E+00  
        CJO        0.000E+00      0.000E+00      0.000E+00  
         RS        4.485E+00      9.429E+00      1.426E+01  
        IKF        0.000E+00      0.000E+00      0.000E+00  
         BV                   

                  LED_VERDE   LED_PORTOCALIU     X_U5.dy    

         IS        9.932E-12      6.765E-15      1.218E-22  
         VJ        1.065E+00      1.065E+00      1.065E+00  
        CJO        0.000E+00      0.000E+00      9.520E-12  
         RS        8.043E+00      6.312E-06      1.000E-03  
        IKF        0.000E+00      0.000E+00      0.000E+00  
         BV                   

                   X_U5.dx        X_U4.dy        X_U4.dx    

         IS        1.218E-22      1.218E-22      1.218E-22  
         VJ        1.065E+00      1.065E+00      1.065E+00  
        CJO        0.000E+00      9.520E-12      0.000E+00  
         RS        1.000E+00      1.000E-03      1.000E+00  
        IKF        0.000E+00      0.000E+00      0.000E+00  
         BV                   

                   X_U3.dy        X_U3.dx        X_U2.dy    

         IS        1.218E-22      1.218E-22      1.218E-22  
         VJ        1.065E+00      1.065E+00      1.065E+00  
        CJO        9.520E-12      0.000E+00      9.520E-12  
         RS        1.000E-03      1.000E+00      1.000E-03  
        IKF        0.000E+00      0.000E+00      0.000E+00  
         BV                   

                   X_U2.dx        X_U1.dy        X_U1.dx    

         IS        1.218E-22      1.218E-22      1.218E-22  
         VJ        1.065E+00      1.065E+00      1.065E+00  
        CJO        0.000E+00      9.520E-12      0.000E+00  
         RS        1.000E+00      1.000E-03      1.000E+00  
        IKF        0.000E+00      0.000E+00      0.000E+00  
         BV                   


 **** BJT MODEL PARAMETERS

                   X_U5.qx        X_U4.qx        X_U3.qx    

         BF        9.375E+01      9.375E+01      9.375E+01  
        ISE        0.000E+00      0.000E+00      0.000E+00  
        VJE        8.794E-01      8.794E-01      8.794E-01  
        CJE        0.000E+00      0.000E+00      0.000E+00  
         RE        0.000E+00      0.000E+00      0.000E+00  
         RB        0.000E+00      0.000E+00      0.000E+00  
         BR        1.000E+00      1.000E+00      1.000E+00  
        ISC        0.000E+00      0.000E+00      0.000E+00  
        VJC        8.794E-01      8.794E-01      8.794E-01  
        CJC        0.000E+00      0.000E+00      0.000E+00  
         RC        0.000E+00      0.000E+00      0.000E+00  
        RBM        0.000E+00      0.000E+00      0.000E+00  
         IS        1.218E-22      1.218E-22      1.218E-22  
        ISS        0.000E+00      0.000E+00      0.000E+00  
        VJS        8.794E-01      8.794E-01      8.794E-01  
        CJS        0.000E+00      0.000E+00      0.000E+00  
      GAMMA        1.000E-11      1.000E-11      1.000E-11  
        RCO        0.000E+00      0.000E+00      0.000E+00  
         VO        1.000E+01      1.000E+01      1.000E+01  

                   X_U2.qx        X_U1.qx                   

         BF        9.375E+01      9.375E+01  
        ISE        0.000E+00      0.000E+00  
        VJE        8.794E-01      8.794E-01  
        CJE        0.000E+00      0.000E+00  
         RE        0.000E+00      0.000E+00  
         RB        0.000E+00      0.000E+00  
         BR        1.000E+00      1.000E+00  
        ISC        0.000E+00      0.000E+00  
        VJC        8.794E-01      8.794E-01  
        CJC        0.000E+00      0.000E+00  
         RC        0.000E+00      0.000E+00  
        RBM        0.000E+00      0.000E+00  
         IS        1.218E-22      1.218E-22  
        ISS        0.000E+00      0.000E+00  
        VJS        8.794E-01      8.794E-01  
        CJS        0.000E+00      0.000E+00  
      GAMMA        1.000E-11      1.000E-11  
        RCO        0.000E+00      0.000E+00  
         VO        1.000E+01      1.000E+01  


 **** RESISTORS

                 R_R6 <R_R6>    R_R9 <R_R9>                 

          R        4.990E+03      1.000E+03  



**** 05/21/21 01:23:46 ****** PSpice 17.2.0 (March 2016) ****** ID# 0 ********

 ** Profile: "SCHEMATIC1-tran"  [ E:\An2_Sem2\Tehnici_CAD\Proiect\main-PSpiceFiles\SCHEMATIC1\tran.sim ] 


 ****     INITIAL TRANSIENT SOLUTION       TEMPERATURE =  -50.000 DEG C


******************************************************************************



 NODE   VOLTAGE     NODE   VOLTAGE     NODE   VOLTAGE     NODE   VOLTAGE


(  OUT) 3.206E-06  (  VCC)   16.0000  ( -VCC)  -16.0000  (N09294)   11.5680     

(N09472)  -15.9090 (N09568)  -15.9090 (N09654)  -15.9090 (N09690)   10.2450     

(N09756)  -15.9090 (N09834)    6.0249 (N09900)  -15.8960 (N13610)   10.9210     

(N16519)   15.8220 (N17329)  -15.8960 (N17714)  -15.9090 (N18668)  -12.5400     

(N19094)  -15.9090 (X_U1.6)    1.5873 (X_U1.7)  -17.9460 (X_U1.8)  -17.9460     

(X_U1.9)    0.0000 (X_U2.6)    1.5820 (X_U2.7)  -17.9460 (X_U2.8)  -17.9460     

(X_U2.9)    0.0000 (X_U3.6)    1.5766 (X_U3.7)  -17.9460 (X_U3.8)  -17.9460     

(X_U3.9)    0.0000 (X_U4.6)    1.5424 (X_U4.7)  -17.9330 (X_U4.8)  -17.9330     

(X_U4.9)    0.0000 (X_U5.6)    -.0053 (X_U5.7)   16.8580 (X_U5.8)   16.8580     

(X_U5.9)    0.0000 (X_U1.10)   10.7810                   (X_U1.11)   15.9160    

(X_U1.12)   16.0000                   (X_U1.13)   10.8100                       

(X_U1.14)   10.7810                   (X_U1.53)   15.0000                       

(X_U1.54)  -15.0000                   (X_U1.90)  -40.7540                       

(X_U1.91)   40.0000                   (X_U1.92)  -40.0000                       

(X_U1.99)    0.0000                   (X_U2.10)   10.1340                       

(X_U2.11)   15.9160                   (X_U2.12)   16.0000                       

(X_U2.13)   10.1630                   (X_U2.14)   10.1340                       

(X_U2.53)   15.0000                   (X_U2.54)  -15.0000                       

(X_U2.90)  -40.7540                   (X_U2.91)   40.0000                       

(X_U2.92)  -40.0000                   (X_U2.99)    0.0000                       

(X_U3.10)    9.4577                   (X_U3.11)   15.9170                       

(X_U3.12)   16.0000                   (X_U3.13)    9.4869                       

(X_U3.14)    9.4577                   (X_U3.53)   15.0000                       

(X_U3.54)  -15.0000                   (X_U3.90)  -40.7530                       

(X_U3.91)   40.0000                   (X_U3.92)  -40.0000                       

(X_U3.99)    0.0000                   (X_U4.10)    5.2391                       

(X_U4.11)   15.9180                   (X_U4.12)   16.0000                       

(X_U4.13)    5.2677                   (X_U4.14)    5.2391                       

(X_U4.53)   15.0000                   (X_U4.54)  -15.0000                       

(X_U4.90)  -40.7560                   (X_U4.91)   40.0000                       

(X_U4.92)  -40.0000                   (X_U4.99)    0.0000                       

(X_U5.10)    -.7558                   (X_U5.11)   15.9620                       

(X_U5.12)   15.9620                   (X_U5.13)    -.7425                       

(X_U5.14)    -.7425                   (X_U5.53)   15.0000                       

(X_U5.54)    1.0000                   (X_U5.90)   20.7100                       

(X_U5.91)   40.0000                   (X_U5.92)  -40.0000                       

(X_U5.99)    8.0000                   




    VOLTAGE SOURCE CURRENTS
    NAME         CURRENT

    V_V2        -1.356E-01
    V_V1        -3.600E-02
    X_U5.vb     -5.290E-08
    X_U5.vc     -4.516E-04
    X_U5.ve      1.469E-11
    X_U5.vlim    2.071E-02
    X_U5.vlp    -1.929E-11
    X_U5.vln    -6.071E-11
    X_U4.vb      1.542E-05
    X_U4.vc      3.090E-11
    X_U4.ve     -2.050E-02
    X_U4.vlim   -4.076E-02
    X_U4.vlp    -8.076E-11
    X_U4.vln     1.429E-05
    X_U3.vb      1.577E-05
    X_U3.vc      3.091E-11
    X_U3.ve     -4.075E-02
    X_U3.vlim   -4.075E-02
    X_U3.vlp    -8.075E-11
    X_U3.vln     1.263E-05
    X_U2.vb      1.582E-05
    X_U2.vc      3.091E-11
    X_U2.ve     -4.075E-02
    X_U2.vlim   -4.075E-02
    X_U2.vlp    -8.075E-11
    X_U2.vln     1.269E-05
    X_U1.vb      1.587E-05
    X_U1.vc      3.091E-11
    X_U1.ve     -4.075E-02
    X_U1.vlim   -4.075E-02
    X_U1.vlp    -8.075E-11
    X_U1.vln     1.274E-05

    TOTAL POWER DISSIPATION  -1.45E+00  WATTS


**** 05/21/21 01:23:46 ****** PSpice 17.2.0 (March 2016) ****** ID# 0 ********

 ** Profile: "SCHEMATIC1-tran"  [ E:\An2_Sem2\Tehnici_CAD\Proiect\main-PSpiceFiles\SCHEMATIC1\tran.sim ] 


 ****     TEMPERATURE-ADJUSTED VALUES      TEMPERATURE =  -25.000 DEG C


******************************************************************************




 **** DIODE MODEL PARAMETERS

                 LED_GALBEN      LED_ROSU     LED_ALBASTRU  

         IS        4.807E-07      2.912E-11      1.359E-17  
         VJ        1.045E+00      1.045E+00      1.045E+00  
        CJO        0.000E+00      0.000E+00      0.000E+00  
         RS        4.485E+00      9.429E+00      1.426E+01  
        IKF        0.000E+00      0.000E+00      0.000E+00  
         BV                   

                  LED_VERDE   LED_PORTOCALIU     X_U5.dy    

         IS        5.886E-11      7.072E-14      5.617E-20  
         VJ        1.045E+00      1.045E+00      1.045E+00  
        CJO        0.000E+00      0.000E+00      9.670E-12  
         RS        8.043E+00      6.312E-06      1.000E-03  
        IKF        0.000E+00      0.000E+00      0.000E+00  
         BV                   

                   X_U5.dx        X_U4.dy        X_U4.dx    

         IS        5.617E-20      5.617E-20      5.617E-20  
         VJ        1.045E+00      1.045E+00      1.045E+00  
        CJO        0.000E+00      9.670E-12      0.000E+00  
         RS        1.000E+00      1.000E-03      1.000E+00  
        IKF        0.000E+00      0.000E+00      0.000E+00  
         BV                   

                   X_U3.dy        X_U3.dx        X_U2.dy    

         IS        5.617E-20      5.617E-20      5.617E-20  
         VJ        1.045E+00      1.045E+00      1.045E+00  
        CJO        9.670E-12      0.000E+00      9.670E-12  
         RS        1.000E-03      1.000E+00      1.000E-03  
        IKF        0.000E+00      0.000E+00      0.000E+00  
         BV                   

                   X_U2.dx        X_U1.dy        X_U1.dx    

         IS        5.617E-20      5.617E-20      5.617E-20  
         VJ        1.045E+00      1.045E+00      1.045E+00  
        CJO        0.000E+00      9.670E-12      0.000E+00  
         RS        1.000E+00      1.000E-03      1.000E+00  
        IKF        0.000E+00      0.000E+00      0.000E+00  
         BV                   


 **** BJT MODEL PARAMETERS

                   X_U5.qx        X_U4.qx        X_U3.qx    

         BF        9.375E+01      9.375E+01      9.375E+01  
        ISE        0.000E+00      0.000E+00      0.000E+00  
        VJE        8.385E-01      8.385E-01      8.385E-01  
        CJE        0.000E+00      0.000E+00      0.000E+00  
         RE        0.000E+00      0.000E+00      0.000E+00  
         RB        0.000E+00      0.000E+00      0.000E+00  
         BR        1.000E+00      1.000E+00      1.000E+00  
        ISC        0.000E+00      0.000E+00      0.000E+00  
        VJC        8.385E-01      8.385E-01      8.385E-01  
        CJC        0.000E+00      0.000E+00      0.000E+00  
         RC        0.000E+00      0.000E+00      0.000E+00  
        RBM        0.000E+00      0.000E+00      0.000E+00  
         IS        5.617E-20      5.617E-20      5.617E-20  
        ISS        0.000E+00      0.000E+00      0.000E+00  
        VJS        8.385E-01      8.385E-01      8.385E-01  
        CJS        0.000E+00      0.000E+00      0.000E+00  
      GAMMA        1.000E-11      1.000E-11      1.000E-11  
